Freq.	V(out)
1.00000000000000e+000	(-7.32204650560040e-005dB,-2.66758715009080e-001°)
1.02329299228075e+000	(-7.66712100446405e-005dB,-2.72972261728876e-001°)
1.04712854805090e+000	(-8.02845808139746e-005dB,-2.79330536112485e-001°)
1.07151930523761e+000	(-8.40682414109184e-005dB,-2.85836908983296e-001°)
1.09647819614318e+000	(-8.80302170545779e-005dB,-2.92494829658599e-001°)
1.12201845430196e+000	(-9.21789111370323e-005dB,-2.99307827776313e-001°)
1.14815362149688e+000	(-9.65231230768288e-005dB,-3.06279515164159e-001°)
1.17489755493953e+000	(-1.01072066945174e-004dB,-3.13413587752247e-001°)
1.20226443461741e+000	(-1.05835391038435e-004dB,-3.20713827530077e-001°)
1.23026877081238e+000	(-1.10823198309209e-004dB,-3.28184104548982e-001°)
1.25892541179417e+000	(-1.16046067800669e-004dB,-3.35828378971062e-001°)
1.28824955169313e+000	(-1.21515077097690e-004dB,-3.43650703165681e-001°)
1.31825673855641e+000	(-1.27241825779390e-004dB,-3.51655223854620e-001°)
1.34896288259165e+000	(-1.33238460048615e-004dB,-3.59846184307012e-001°)
1.38038426460288e+000	(-1.39517698470933e-004dB,-3.68227926585198e-001°)
1.41253754462275e+000	(-1.46092858947560e-004dB,-3.76804893842682e-001°)
1.44543977074593e+000	(-1.52977886956044e-004dB,-3.85581632675384e-001°)
1.47910838816821e+000	(-1.60187385123371e-004dB,-3.94562795527410e-001°)
1.51356124843621e+000	(-1.67736644164343e-004dB,-4.03753143152591e-001°)
1.54881661891248e+000	(-1.75641675328988e-004dB,-4.13157547133080e-001°)
1.58489319246111e+000	(-1.83919244344619e-004dB,-4.22780992456305e-001°)
1.62181009735893e+000	(-1.92586906950018e-004dB,-4.32628580151626e-001°)
1.65958690743756e+000	(-2.01663046122147e-004dB,-4.42705529988053e-001°)
1.69824365246174e+000	(-2.11166911058149e-004dB,-4.53017183234423e-001°)
1.73780082874937e+000	(-2.21118657968703e-004dB,-4.63569005483482e-001°)
1.77827941003892e+000	(-2.31539392814005e-004dB,-4.74366589541300e-001°)
1.81970085860998e+000	(-2.42451216063505e-004dB,-4.85415658383545e-001°)
1.86208713666287e+000	(-2.53877269508494e-004dB,-4.96722068180106e-001°)
1.90546071796325e+000	(-2.65841785359144e-004dB,-5.08291811389656e-001°)
1.94984459975804e+000	(-2.78370137578919e-004dB,-5.20131019925717e-001°)
1.99526231496888e+000	(-2.91488895701513e-004dB,-5.32245968395865e-001°)
2.04173794466953e+000	(-3.05225881101591e-004dB,-5.44643077415744e-001°)
2.08929613085404e+000	(-3.19610226010803e-004dB,-5.57328916999565e-001°)
2.13796208950223e+000	(-3.34672435232088e-004dB,-5.70310210028835e-001°)
2.18776162394955e+000	(-3.50444450800378e-004dB,-5.83593835801083e-001°)
2.23872113856834e+000	(-3.66959719678742e-004dB,-5.97186833660387e-001°)
2.29086765276777e+000	(-3.84253264630153e-004dB,-6.11096406711546e-001°)
2.34422881531992e+000	(-4.02361758452311e-004dB,-6.25329925619785e-001°)
2.39883291901949e+000	(-4.21323601670478e-004dB,-6.39894932497899e-001°)
2.45470891568503e+000	(-4.41179003918262e-004dB,-6.54799144882824e-001°)
2.51188643150958e+000	(-4.61970069121620e-004dB,-6.70050459803610e-001°)
2.57039578276886e+000	(-4.83740884721926e-004dB,-6.85656957942851e-001°)
2.63026799189538e+000	(-5.06537615049597e-004dB,-7.01626907893665e-001°)
2.69153480392691e+000	(-5.30408599159451e-004dB,-7.17968770514328e-001°)
2.75422870333816e+000	(-5.55404453203748e-004dB,-7.34691203382747e-001°)
2.81838293126445e+000	(-5.81578177658066e-004dB,-7.51803065352985e-001°)
2.88403150312660e+000	(-6.08985269576390e-004dB,-7.69313421216076e-001°)
2.95120922666638e+000	(-6.37683840135790e-004dB,-7.87231546467448e-001°)
3.01995172040201e+000	(-6.67734737695425e-004dB,-8.05566932183279e-001°)
3.09029543251359e+000	(-6.99201676657460e-004dB,-8.24329290008194e-001°)
3.16227766016837e+000	(-7.32151372373171e-004dB,-8.43528557256708e-001°)
3.23593656929628e+000	(-7.66653682411930e-004dB,-8.63174902130919e-001°)
3.31131121482591e+000	(-8.02781754435658e-004dB,-8.83278729056957e-001°)
3.38844156139202e+000	(-8.40612181073849e-004dB,-9.03850684142759e-001°)
3.46736850452531e+000	(-8.80225162020844e-004dB,-9.24901660759793e-001°)
3.54813389233575e+000	(-9.21704673787437e-004dB,-9.46442805251381e-001°)
3.63078054770101e+000	(-9.65138647436874e-004dB,-9.68485522770326e-001°)
3.71535229097172e+000	(-1.01061915464224e-003dB,-9.91041483248606e-001°)
3.80189396320560e+000	(-1.05824260247868e-003dB,-1.01412262750192e+000°)
3.89045144994280e+000	(-1.10810993739691e-003dB,-1.03774117347191e+000°)
3.98107170553496e+000	(-1.16032685876014e-003dB,-1.06190962260904e+000°)
4.07380277804112e+000	(-1.21500404238377e-003dB,-1.08664076639885e+000°)
4.16869383470335e+000	(-1.27225737460814e-003dB,-1.11194769303486e+000°)
4.26579518801592e+000	(-1.33220819731832e-003dB,-1.13784379424088e+000°)
4.36515832240165e+000	(-1.39498356448931e-003dB,-1.16434277224590e+000°)
4.46683592150962e+000	(-1.46071651074280e-003dB,-1.19145864691467e+000°)
4.57088189614874e+000	(-1.52954633252657e-003dB,-1.21920576303710e+000°)
4.67735141287197e+000	(-1.60161888243741e-003dB,-1.24759879777959e+000°)
4.78630092322637e+000	(-1.67708687739348e-003dB,-1.27665276830165e+000°)
4.89778819368445e+000	(-1.75611022121169e-003dB,-1.30638303954089e+000°)
5.01187233627271e+000	(-1.83885634229745e-003dB,-1.33680533216985e+000°)
5.12861383991364e+000	(-1.92550054718908e-003dB,-1.36793573072782e+000°)
5.24807460249771e+000	(-2.01622639062319e-003dB,-1.39979069193109e+000°)
5.37031796370252e+000	(-2.11122606293369e-003dB,-1.43238705316497e+000°)
5.49540873857623e+000	(-2.21070079557505e-003dB,-1.46574204116106e+000°)
5.62341325190348e+000	(-2.31486128565305e-003dB,-1.49987328086294e+000°)
5.75439937337156e+000	(-2.42392814025009e-003dB,-1.53479880448412e+000°)
5.88843655355588e+000	(-2.53813234156692e-003dB,-1.57053706076119e+000°)
6.02559586074356e+000	(-2.65771573379584e-003dB,-1.60710692440609e+000°)
6.16595001861481e+000	(-2.78293153272330e-003dB,-1.64452770576064e+000°)
6.30957344480192e+000	(-2.91404485913748e-003dB,-1.68281916065688e+000°)
6.45654229034654e+000	(-3.05133329712040e-003dB,-1.72200150048669e+000°)
6.60693448007594e+000	(-3.19508747841518e-003dB,-1.76209540248404e+000°)
6.76082975391980e+000	(-3.34561169399077e-003dB,-1.80312202022337e+000°)
6.91830970918935e+000	(-3.50322453417607e-003dB,-1.84510299433732e+000°)
7.07945784384136e+000	(-3.66825955855077e-003dB,-1.88806046345730e+000°)
7.24435960074988e+000	(-3.84106599705056e-003dB,-1.93201707538009e+000°)
7.41310241300916e+000	(-4.02200948370991e-003dB,-1.97699599846366e+000°)
7.58577575029182e+000	(-4.21147282447103e-003dB,-2.02302093325549e+000°)
7.76247116628690e+000	(-4.40985680074074e-003dB,-2.07011612435637e+000°)
7.94328234724279e+000	(-4.61758101021485e-003dB,-2.11830637252261e+000°)
8.12830516164097e+000	(-4.83508474672238e-003dB,-2.16761704700973e+000°)
8.31763771102669e+000	(-5.06282792091073e-003dB,-2.21807409816011e+000°)
8.51138038202374e+000	(-5.30129202354801e-003dB,-2.26970407023749e+000°)
8.70963589956078e+000	(-5.55098113343670e-003dB,-2.32253411451059e+000°)
8.91250938133743e+000	(-5.81242297196994e-003dB,-2.37659200258817e+000°)
9.12010839355907e+000	(-6.08617000640907e-003dB,-2.43190614000770e+000°)
9.33254300796988e+000	(-6.37280060409990e-003dB,-2.48850558007947e+000°)
9.54992586021433e+000	(-6.67292023994632e-003dB,-2.54642003798776e+000°)
9.77237220955808e+000	(-6.98716275953429e-003dB,-2.60567990515045e+000°)
9.99999999999997e+000	(-7.31619170036291e-003dB,-2.66631626383823e+000°)
1.02329299228075e+001	(-7.66070167387575e-003dB,-2.72836090205410e+000°)
1.04712854805090e+001	(-8.02141981091311e-003dB,-2.79184632867363e+000°)
1.07151930523760e+001	(-8.39910727349054e-003dB,-2.85680578884597e+000°)
1.09647819614318e+001	(-8.79456083585120e-003dB,-2.92327327965532e+000°)
1.12201845430196e+001	(-9.20861453779024e-003dB,-2.99128356604188e+000°)
1.14815362149688e+001	(-9.64214141354907e-003dB,-3.06087219698116e+000°)
1.17489755493953e+001	(-1.00960552995260e-002dB,-3.13207552191957e+000°)
1.20226443461741e+001	(-1.05713127243690e-002dB,-3.20493070746394e+000°)
1.23026877081238e+001	(-1.10689148849114e-002dB,-3.27947575432189e+000°)
1.25892541179416e+001	(-1.15899097118524e-002dB,-3.35574951448916e+000°)
1.28824955169313e+001	(-1.21353940289792e-002dB,-3.43379170867952e+000°)
1.31825673855640e+001	(-1.27065158100137e-002dB,-3.51364294399173e+000°)
1.34896288259165e+001	(-1.33044765373113e-002dB,-3.59534473180751e+000°)
1.38038426460288e+001	(-1.39305336667132e-002dB,-3.67893950591324e+000°)
1.41253754462275e+001	(-1.45860032031867e-002dB,-3.76447064083718e+000°)
1.44543977074592e+001	(-1.52722623918585e-002dB,-3.85198247039310e+000°)
1.47910838816820e+001	(-1.59907525293870e-002dB,-3.94152030641963e+000°)
1.51356124843620e+001	(-1.67429819006519e-002dB,-4.03313045770372e+000°)
1.54881661891248e+001	(-1.75305288461070e-002dB,-4.12686024907514e+000°)
1.58489319246111e+001	(-1.83550449650685e-002dB,-4.22275804065729e+000°)
1.62181009735892e+001	(-1.92182584606884e-002dB,-4.32087324725827e+000°)
1.65958690743755e+001	(-2.01219776322673e-002dB,-4.42125635788439e+000°)
1.69824365246174e+001	(-2.10680945209791e-002dB,-4.52395895535632e+000°)
1.73780082874937e+001	(-2.20585887151442e-002dB,-4.62903373600635e+000°)
1.77827941003892e+001	(-2.30955313214358e-002dB,-4.73653452943310e+000°)
1.81970085860998e+001	(-2.41810891085239e-002dB,-4.84651631828763e+000°)
1.86208713666286e+001	(-2.53175288299797e-002dB,-4.95903525806276e+000°)
1.90546071796324e+001	(-2.65072217333245e-002dB,-5.07414869685472e+000°)
1.94984459975804e+001	(-2.77526482623642e-002dB,-5.19191519506347e+000°)
1.99526231496887e+001	(-2.90564029601352e-002dB,-5.31239454499536e+000°)
2.04173794466952e+001	(-3.04211995799459e-002dB,-5.43564779032852e+000°)
2.08929613085403e+001	(-3.18498764121410e-002dB,-5.56173724539813e+000°)
2.13796208950222e+001	(-3.33454018344720e-002dB,-5.69072651425526e+000°)
2.18776162394954e+001	(-3.49108800940256e-002dB,-5.82268050944916e+000°)
2.23872113856833e+001	(-3.65495573288223e-002dB,-5.95766547047920e+000°)
2.29086765276776e+001	(-3.82648278373787e-002dB,-6.09574898185794e+000°)
2.34422881531991e+001	(-4.00602406045689e-002dB,-6.23699999072298e+000°)
2.39883291901948e+001	(-4.19395060922500e-002dB,-6.38148882393009e+000°)
2.45470891568502e+001	(-4.39065033032543e-002dB,-6.52928720455531e+000°)
2.51188643150957e+001	(-4.59652871271695e-002dB,-6.68046826772835e+000°)
2.57039578276885e+001	(-4.81200959767770e-002dB,-6.83510657571423e+000°)
2.63026799189537e+001	(-5.03753597234411e-002dB,-6.99327813215397e+000°)
2.69153480392690e+001	(-5.27357079402621e-002dB,-7.15506039536915e+000°)
2.75422870333815e+001	(-5.52059784612876e-002dB,-7.32053229062848e+000°)
2.81838293126444e+001	(-5.77912262651971e-002dB,-7.48977422126789e+000°)
2.88403150312659e+001	(-6.04967326915619e-002dB,-7.66286807854812e+000°)
2.95120922666637e+001	(-6.33280149976594e-002dB,-7.83989725012664e+000°)
3.01995172040200e+001	(-6.62908362633518e-002dB,-8.02094662701247e+000°)
3.09029543251358e+001	(-6.93912156513842e-002dB,-8.20610260886449e+000°)
3.16227766016837e+001	(-7.26354390298636e-002dB,-8.39545310748509e+000°)
3.23593656929627e+001	(-7.60300699631534e-002dB,-8.58908754835207e+000°)
3.31131121482590e+001	(-7.95819610769220e-002dB,-8.78709687002247e+000°)
3.38844156139201e+001	(-8.32982658022658e-002dB,-8.98957352123222e+000°)
3.46736850452530e+001	(-8.71864505030359e-002dB,-9.19661145550574e+000°)
3.54813389233574e+001	(-9.12543069895048e-002dB,-9.40830612307913e+000°)
3.63078054770100e+001	(-9.55099654206266e-002dB,-9.62475445993013e+000°)
3.71535229097171e+001	(-9.99619075956363e-002dB,-9.84605487369715e+000°)
3.80189396320559e+001	(-1.04618980634675e-001dB,-1.00723072262587e+001°)
3.89045144994279e+001	(-1.09490411046404e-001dB,-1.03036128127332e+001°)
3.98107170553495e+001	(-1.14585819179024e-001dB,-1.05400743366474e+001°)
4.07380277804111e+001	(-1.19915234049063e-001dB,-1.07817958810117e+001°)
4.16869383470333e+001	(-1.25489108540446e-001dB,-1.10288828750257e+001°)
4.26579518801591e+001	(-1.31318334963902e-001dB,-1.12814420561312e+001°)
4.36515832240164e+001	(-1.37414260964237e-001dB,-1.15395814271125e+001°)
4.46683592150961e+001	(-1.43788705760422e-001dB,-1.18034102079375e+001°)
4.57088189614873e+001	(-1.50453976700244e-001dB,-1.20730387820207e+001°)
4.67735141287196e+001	(-1.57422886108106e-001dB,-1.23485786365773e+001°)
4.78630092322636e+001	(-1.64708768400966e-001dB,-1.26301422967320e+001°)
4.89778819368444e+001	(-1.72325497443575e-001dB,-1.29178432530317e+001°)
5.01187233627270e+001	(-1.80287504110033e-001dB,-1.32117958820105e+001°)
5.12861383991362e+001	(-1.88609794014186e-001dB,-1.35121153594401e+001°)
5.24807460249770e+001	(-1.97307965366657e-001dB,-1.38189175659027e+001°)
5.37031796370250e+001	(-2.06398226911118e-001dB,-1.41323189843104e+001°)
5.49540873857622e+001	(-2.15897415887036e-001dB,-1.44524365890021e+001°)
5.62341325190346e+001	(-2.25823015960246e-001dB,-1.47793877260414e+001°)
5.75439937337154e+001	(-2.36193175056715e-001dB,-1.51132899843468e+001°)
5.88843655355586e+001	(-2.47026723028225e-001dB,-1.54542610572895e+001°)
6.02559586074355e+001	(-2.58343189072060e-001dB,-1.58024185944005e+001°)
6.16595001861479e+001	(-2.70162818819645e-001dB,-1.61578800428454e+001°)
6.30957344480190e+001	(-2.82506591001686e-001dB,-1.65207624783351e+001°)
6.45654229034652e+001	(-2.95396233589690e-001dB,-1.68911824251661e+001°)
6.60693448007593e+001	(-3.08854239305921e-001dB,-1.72692556651061e+001°)
6.76082975391978e+001	(-3.22903880385712e-001dB,-1.76550970348692e+001°)
6.91830970918933e+001	(-3.37569222467818e-001dB,-1.80488202119646e+001°)
7.07945784384134e+001	(-3.52875137480249e-001dB,-1.84505374887380e+001°)
7.24435960074986e+001	(-3.68847315380580e-001dB,-1.88603595344787e+001°)
7.41310241300914e+001	(-3.85512274601566e-001dB,-1.92783951455148e+001°)
7.58577575029180e+001	(-4.02897371044686e-001dB,-1.97047509832820e+001°)
7.76247116628688e+001	(-4.21030805456388e-001dB,-2.01395313004236e+001°)
7.94328234724277e+001	(-4.39941629014263e-001dB,-2.05828376550500e+001°)
8.12830516164095e+001	(-4.59659746943464e-001dB,-2.10347686133775e+001°)
8.31763771102667e+001	(-4.80215919977162e-001dB,-2.14954194410564e+001°)
8.51138038202372e+001	(-5.01641763469272e-001dB,-2.19648817836002e+001°)
8.70963589956076e+001	(-5.23969743963158e-001dB,-2.24432433364402e+001°)
8.91250938133741e+001	(-5.47233173016378e-001dB,-2.29305875052482e+001°)
9.12010839355905e+001	(-5.71466198079325e-001dB,-2.34269930572955e+001°)
9.33254300796986e+001	(-5.96703790225151e-001dB,-2.39325337647569e+001°)
9.54992586021431e+001	(-6.22981728529203e-001dB,-2.44472780410043e+001°)
9.77237220955805e+001	(-6.50336580899299e-001dB,-2.49712885710919e+001°)
9.99999999999995e+001	(-6.78805681163348e-001dB,-2.55046219377842e+001°)
1.02329299228075e+002	(-7.08427102228289e-001dB,-2.60473282446424e+001°)
1.04712854805089e+002	(-7.39239625134432e-001dB,-2.65994507378493e+001°)
1.07151930523760e+002	(-7.71282703842106e-001dB,-2.71610254286159e+001°)
1.09647819614318e+002	(-8.04596425603499e-001dB,-2.77320807181820e+001°)
1.12201845430196e+002	(-8.39221466791207e-001dB,-2.83126370275876e+001°)
1.14815362149688e+002	(-8.75199044077546e-001dB,-2.89027064345515e+001°)
1.17489755493952e+002	(-9.12570860883899e-001dB,-2.95022923199480e+001°)
1.20226443461741e+002	(-9.51379049048570e-001dB,-3.01113890265176e+001°)
1.23026877081237e+002	(-9.91666105693857e-001dB,-3.07299815325800e+001°)
1.25892541179416e+002	(-1.03347482530884e+000dB,-3.13580451436341e+001°)
1.28824955169313e+002	(-1.07684822710358e+000dB,-3.19955452048304e+001°)
1.31825673855640e+002	(-1.12182947773233e+000dB,-3.26424368373746e+001°)
1.34896288259165e+002	(-1.16846180952888e+000dB,-3.32986647019756e+001°)
1.38038426460288e+002	(-1.21678843444430e+000dB,-3.39641627924735e+001°)
1.41253754462275e+002	(-1.26685245392755e+000dB,-3.46388542627716e+001°)
1.44543977074592e+002	(-1.31869676504082e+000dB,-3.53226512901579e+001°)
1.47910838816820e+002	(-1.37236396315414e+000dB,-3.60154549780149e+001°)
1.51356124843620e+002	(-1.42789624161691e+000dB,-3.67171553008012e+001°)
1.54881661891247e+002	(-1.48533528885718e+000dB,-3.74276310940215e+001°)
1.58489319246110e+002	(-1.54472218341130e+000dB,-3.81467500917002e+001°)
1.62181009735892e+002	(-1.60609728743703e+000dB,-3.88743690136205e+001°)
1.65958690743755e+002	(-1.66950013931047e+000dB,-3.96103337043030e+001°)
1.69824365246173e+002	(-1.73496934595130e+000dB,-4.03544793253597e+001°)
1.73780082874936e+002	(-1.80254247556051e+000dB,-4.11066306024835e+001°)
1.77827941003891e+002	(-1.87225595148835e+000dB,-4.18666021279193e+001°)
1.81970085860997e+002	(-1.94414494797874e+000dB,-4.26341987188123e+001°)
1.86208713666286e+002	(-2.01824328855666e+000dB,-4.34092158313521e+001°)
1.90546071796323e+002	(-2.09458334783826e+000dB,-4.41914400301200e+001°)
1.94984459975803e+002	(-2.17319595754782e+000dB,-4.49806495115299e+001°)
1.99526231496887e+002	(-2.25411031752108e+000dB,-4.57766146797106e+001°)
2.04173794466952e+002	(-2.33735391246093e+000dB,-4.65790987726396e+001°)
2.08929613085403e+002	(-2.42295243518739e+000dB,-4.73878585357983e+001°)
2.13796208950222e+002	(-2.51092971709115e+000dB,-4.82026449400931e+001°)
2.18776162394954e+002	(-2.60130766645702e+000dB,-4.90232039402783e+001°)
2.23872113856832e+002	(-2.69410621527151e+000dB,-4.98492772696398e+001°)
2.29086765276776e+002	(-2.78934327506843e+000dB,-5.06806032662539e+001°)
2.34422881531991e+002	(-2.88703470229736e+000dB,-5.15169177257399e+001°)
2.39883291901947e+002	(-2.98719427362395e+000dB,-5.23579547750741e+001°)
2.45470891568501e+002	(-3.08983367148902e+000dB,-5.32034477617481e+001°)
2.51188643150956e+002	(-3.19496248016590e+000dB,-5.40531301523218e+001°)
2.57039578276885e+002	(-3.30258819246482e+000dB,-5.49067364342640e+001°)
2.63026799189536e+002	(-3.41271622713953e+000dB,-5.57640030148825e+001°)
2.69153480392690e+002	(-3.52534995695680e+000dB,-5.66246691111263e+001°)
2.75422870333815e+002	(-3.64049074729559e+000dB,-5.74884776240910e+001°)
2.81838293126443e+002	(-3.75813800505004e+000dB,-5.83551759921869e+001°)
2.88403150312659e+002	(-3.87828923752143e+000dB,-5.92245170171135e+001°)
2.95120922666637e+002	(-4.00094012089956e+000dB,-6.00962596570406e+001°)
3.01995172040200e+002	(-4.12608457785438e+000dB,-6.09701697817110e+001°)
3.09029543251357e+002	(-4.25371486368669e+000dB,-6.18460208845418e+001°)
3.16227766016836e+002	(-4.38382166042114e+000dB,-6.27235947472195e+001°)
3.23593656929626e+002	(-4.51639417816830e+000dB,-6.36026820527318e+001°)
3.31131121482589e+002	(-4.65142026303428e+000dB,-6.44830829432652e+001°)
3.38844156139200e+002	(-4.78888651081743e+000dB,-6.53646075199011e+001°)
3.46736850452529e+002	(-4.92877838570208e+000dB,-6.62470762815657e+001°)
3.54813389233573e+002	(-5.07108034313871e+000dB,-6.71303205012167e+001°)
3.63078054770099e+002	(-5.21577595608865e+000dB,-6.80141825377735e+001°)
3.71535229097170e+002	(-5.36284804380857e+000dB,-6.88985160828188e+001°)
3.80189396320558e+002	(-5.51227880235595e+000dB,-6.97831863415993e+001°)
3.89045144994278e+002	(-5.66404993600924e+000dB,-7.06680701483358e+001°)
3.98107170553494e+002	(-5.81814278881708e+000dB,-7.15530560163060e+001°)
4.07380277804110e+002	(-5.97453847551654e+000dB,-7.24380441235911e+001°)
4.16869383470332e+002	(-6.13321801109197e+000dB,-7.33229462357611e+001°)
4.26579518801589e+002	(-6.29416243828155e+000dB,-7.42076855671337e+001°)
4.36515832240163e+002	(-6.45735295237802e+000dB,-7.50921965825514e+001°)
4.46683592150960e+002	(-6.62277102271137e+000dB,-7.59764247419012e+001°)
4.57088189614872e+002	(-6.79039851024548e+000dB,-7.68603261898378e+001°)
4.67735141287195e+002	(-6.96021778076436e+000dB,-7.77438673933717e+001°)
4.78630092322635e+002	(-7.13221181316904e+000dB,-7.86270247301482e+001°)
4.89778819368443e+002	(-7.30636430244997e+000dB,-7.95097840303727e+001°)
